Circuit: * C:\Users\laz3r\Documents\Eclipse\kARCA_v2\karca_v2\Docs\Simulations\Driver.asc

WARNING: Less than two connections to node u2:_u43:nsgnvicm1.  This node is used by e:u2:_u43:z1.
Direct Newton iteration for .op point succeeded.
Semiconductor Device Operating Points:
                        --- Diodes ---
Name:      d1       d:u2:_d1   d:u2:_u37:1 d:u2:_u37:2   d:u1:1
Model:      d       u2:dideal  u2:_u37:dvn u2:_u37:dvn    u1:md
Id:     -2.37e-15   -6.16e-28    1.00e-02    1.00e-02   -3.35e-10
Vd:     -1.73e-03   -4.44e-16    8.34e-01    8.34e-01   -1.20e+01
Req:     7.34e+11    7.21e+11    2.59e+00    2.59e+00    1.00e+12
CAP:     0.00e+00    0.00e+00    0.00e+00    0.00e+00    7.18e-10

Name:    d:u1:2      d:u1:3      d:u1:4
Model:   u1:md1      u1:md2      u1:md3
Id:     -1.20e-11   -1.12e-10   -1.12e-10
Vd:     -1.20e+01   -1.20e+01   -1.20e+01
Req:     1.00e+12    1.00e+12    1.00e+12
CAP:     5.59e-11    0.00e+00    0.00e+00

                        --- MOSFET Transistors ---
Name:        m:u1:1
Model:        u1:mm
Id:          2.40e-11
Vgs:         1.20e-08
Vds:         1.20e+01
Vbs:         0.00e+00
Vth:         1.93e+00
Vdsat:       0.00e+00
Gm:          0.00e+00
Gds:         0.00e+00
Gmb:         0.00e+00
Cbd:         0.00e+00
Cbs:         0.00e+00
Cgsov:       2.36e-09
Cgdov:       5.82e-12
Cgbov:       0.00e+00
Cgs:         0.00e+00
Cgd:         0.00e+00
Cgb:         0.00e+00



Date: Fri Jan  3 00:26:53 2025
Total elapsed time: 0.528 seconds.

tnom = 27
temp = 27
method = trap
totiter = 37
traniter = 0
tranpoints = 0
accept = 0
rejected = 0
matrix size = 189
fillins = 72
solver = Normal
Avg thread counts: 16.0/0.0/16.0/16.0
Matrix Compiler1: 10.33 KB object code size
Matrix Compiler2:    1172 opcodes
